I (332) MODBUS: Sent Request:
I (332) MODBUS: 0x3ffb8910   01 03 00 00 00 7b 05 e9                           |.....{..|
I (342) main_task: Returned from app_main()
I (1632) MODBUS: Received 251 bytes
I (1632) MODBUS: 0x3ffb71ec   01 03 f6 00 05 00 01 01  00 32 31 30 35 31 38 34  |.........2105184|
I (1632) MODBUS: 0x3ffb71fc   30 33 37 00 00 00 00 00  00 18 07 00 00 00 00 20  |037............ |
I (1642) MODBUS: 0x3ffb720c   03 10 57 00 00 10 01 40  10 00 00 86 a0 00 01 02  |..W....@........|
I (1652) MODBUS: 0x3ffb721c   03 00 00 00 00 00 00 00  00 00 00 00 00 00 00 00  |................|
I (1662) MODBUS: 0x3ffb722c   00 00 00 00 00 00 00 00  00 00 00 00 00 00 00 00  |................|
I (1672) MODBUS: 0x3ffb723c   00 00 00 00 00 00 00 00  00 00 00 00 00 00 00 00  |................|
I (1682) MODBUS: 0x3ffb724c   00 00 00 00 00 00 00 00  00 00 00 00 00 00 00 00  |................|
I (1692) MODBUS: 0x3ffb725c   00 00 00 00 00 00 00 00  00 00 00 00 ff ff ff 19  |................|
I (1702) MODBUS: 0x3ffb726c   08 12 0f 06 19 ff ff ff  ff ff ff ff ff ff ff ff  |................|
I (1712) MODBUS: 0x3ffb727c   ff ff ff ff ff ff ff 00  01 ff ff 00 01 ff ff ff  |................|
I (1712) MODBUS: 0x3ffb728c   ff ff ff 00 01 00 00 ff  ff ff ff ff ff ff ff ff  |................|
I (1722) MODBUS: 0x3ffb729c   ff ff ff ff ff ff ff ff  ff ff ff ff ff ff ff ff  |................|
I (1732) MODBUS: 0x3ffb72ac   ff ff ff ff ff 00 00 00  00 15 e0 15 e0 15 7c 00  |..............|.|
I (1742) MODBUS: 0x3ffb72bc   c8 11 94 00 14 00 5a 00  00 00 05 00 14 00 c8 ff  |......Z.........|
I (1752) MODBUS: 0x3ffb72cc   ff 00 00 00 01 00 19 03  de 00 0a 00 32 00 23 10  |............2.#.|
I (1762) MODBUS: 0x3ffb72dc   68 12 c0 11 30 00 f0 00  00 dc 53                 |h...0.....S|
I (1772) MODBUS: CRC valid.
I (2342) MODBUS: Sent Request:
I (2342) MODBUS: 0x3ffb8910   01 03 00 7b 00 7b 75 f0                           |...{.{u.|
I (3642) MODBUS: Received 251 bytes
I (3642) MODBUS: 0x3ffb71ec   01 03 f6 13 24 00 1e 00  28 13 24 00 1e 00 1e 00  |....$...(.$.....|
I (3642) MODBUS: 0x3ffb71fc   00 00 01 15 7c 00 00 00  00 13 ec 00 5f 15 18 00  |....|......._...|
I (3652) MODBUS: 0x3ffb720c   64 00 00 01 f4 00 03 00  01 00 01 27 10 00 0b 00  |d..........'....|
I (3662) MODBUS: 0x3ffb721c   00 00 ff 00 00 00 64 01  f4 03 84 05 14 06 a4 08  |......d.........|
I (3672) MODBUS: 0x3ffb722c   34 27 10 27 10 27 10 27  10 27 10 27 10 13 24 13  |4'.'.'.'.'.'..$.|
I (3682) MODBUS: 0x3ffb723c   24 13 24 13 24 13 24 13  24 00 50 00 50 00 50 00  |$.$.$.$.$.P.P.P.|
I (3692) MODBUS: 0x3ffb724c   50 00 50 00 50 00 01 00  01 00 01 00 01 00 01 00  |P.P.P...........|
I (3702) MODBUS: 0x3ffb725c   01 00 a2 ff ff 00 05 00  00 00 00 00 00 00 01 0a  |................|
I (3712) MODBUS: 0x3ffb726c   5a 07 3a 14 1e 12 8e 00  01 1f 40 1f 40 00 64 03  |Z.:.......@.@.d.|
I (3712) MODBUS: 0x3ffb727c   e8 00 00 00 00 75 30 00  00 af c8 00 00 01 90 00  |.....u0.........|
I (3722) MODBUS: 0x3ffb728c   00 00 32 00 00 01 86 00  00 00 37 00 03 a2 0e 00  |..2.......7.....|
I (3732) MODBUS: 0x3ffb729c   00 00 00 00 00 00 00 00  00 00 00 00 00 00 00 00  |................|
I (3742) MODBUS: 0x3ffb72ac   00 00 00 00 00 00 00 00  00 00 00 ff ff ff ff ff  |................|
I (3752) MODBUS: 0x3ffb72bc   ff ff ff ff ff 0e ef ff  ff ff ff ff ff ff ff ff  |................|
I (3762) MODBUS: 0x3ffb72cc   ff ff ff ff ff ff ff 00  00 00 64 ff ff 00 00 ff  |..........d.....|
I (3772) MODBUS: 0x3ffb72dc   ff ff ff ff ff ff ff ff  ff a8 12                 |...........|
I (3782) MODBUS: CRC valid.
I (4342) MODBUS: Sent Request:
I (4342) MODBUS: 0x3ffb8910   01 03 00 f6 00 7b e5 db                           |.....{..|
I (5642) MODBUS: Received 251 bytes
I (5642) MODBUS: 0x3ffb71ec   01 03 f6 ff ff ff ff ff  ff ff ff ff ff ff ff ff  |................|
I (5642) MODBUS: 0x3ffb71fc   ff ff ff ff ff ff ff ff  ff ff ff ff ff ff ff ff  |................|
I (5652) MODBUS: 0x3ffb720c   ff ff ff ff ff ff ff ff  ff ff ff ff ff ff ff 03  |................|
I (5662) MODBUS: 0x3ffb721c   e8 03 e8 03 e8 03 e8 03  e8 03 e8 03 e8 03 e8 03  |................|
I (5672) MODBUS: 0x3ffb722c   e8 03 e8 03 e8 03 e8 03  e8 03 e8 03 e8 03 e8 03  |................|
I (5682) MODBUS: 0x3ffb723c   e8 03 e8 03 e8 03 e8 03  e8 03 e5 03 e8 03 e8 03  |................|
I (5692) MODBUS: 0x3ffb724c   e8 03 e8 03 e8 03 e8 03  e8 03 e8 03 e8 03 e8 ff  |................|
I (5702) MODBUS: 0x3ffb725c   ff 03 e8 03 e8 03 e8 03  e8 03 e8 03 e8 03 e8 03  |................|
I (5712) MODBUS: 0x3ffb726c   e8 03 e8 00 00 03 84 04  4c 05 14 05 dc 06 a4 07  |........L.......|
I (5712) MODBUS: 0x3ffb727c   6c 08 34 08 fc 09 c4 0a  8c 0b 54 0c 1c 00 00 00  |l.4.......T.....|
I (5722) MODBUS: 0x3ffb728c   0f 00 1e 00 2d 00 3c 00  4b 00 5a 00 69 00 78 00  |....-.<.K.Z.i.x.|
I (5732) MODBUS: 0x3ffb729c   87 00 96 00 a5 ff ff 00  00 00 00 ff ff ff ff 27  |...............'|
I (5742) MODBUS: 0x3ffb72ac   10 00 00 ff ff ff ff 00  00 ff ff ff ff 07 d0 ff  |................|
I (5752) MODBUS: 0x3ffb72bc   ff ff ff ff ff ff ff ff  ff ff ff ff ff ff ff ff  |................|
I (5762) MODBUS: 0x3ffb72cc   ff ff ff ff ff 00 3c 05  55 05 55 05 55 ff ff ff  |......<.U.U.U...|
I (5772) MODBUS: 0x3ffb72dc   ff ff ff ff ff ff ff ff  ff 6f 7d                 |.........o}|
I (5782) MODBUS: CRC valid.
I (6342) MODBUS: Sent Request:
I (6342) MODBUS: 0x3ffb8910   01 03 01 71 00 7b 54 0e                           |...q.{T.|
I (7642) MODBUS: Received 251 bytes
I (7642) MODBUS: 0x3ffb71ec   01 03 f6 ff ff ff ff ff  ff ff ff ff ff ff ff ff  |................|
I (7642) MODBUS: 0x3ffb71fc   ff ff ff ff ff ff ff ff  ff 00 00 0b 40 0a 50 08  |............@.P.|
I (7652) MODBUS: 0x3ffb720c   40 06 90 04 b0 00 00 00  0c 00 14 00 0a 00 00 ff  |@...............|
I (7662) MODBUS: 0x3ffb721c   ff 18 38 17 a2 16 da 16  44 00 00 01 2b 01 2b 00  |..8.....D...+.+.|
I (7672) MODBUS: 0x3ffb722c   00 00 00 08 70 08 d0 09  f0 0a 50 00 2c 00 00 00  |....p.....P.,...|
I (7682) MODBUS: 0x3ffb723c   00 ff d4 00 00 17 a2 18  38 00 00 09 f0 0a 50 00  |........8.....P.|
I (7692) MODBUS: 0x3ffb724c   64 00 64 00 0a 00 0a 00  0a ff ff ff ff ff ff ff  |d.d.............|
I (7702) MODBUS: 0x3ffb725c   ff ff ff ff ff ff ff ff  ff ff ff ff ff 00 00 00  |................|
I (7712) MODBUS: 0x3ffb726c   00 00 00 00 00 00 00 00  00 00 00 00 00 00 00 00  |................|
I (7712) MODBUS: 0x3ffb727c   00 00 00 00 00 00 00 00  00 00 00 00 00 00 00 00  |................|
I (7722) MODBUS: 0x3ffb728c   00 00 00 00 00 00 00 00  00 00 00 00 00 00 00 00  |................|
I (7732) MODBUS: 0x3ffb729c   00 00 00 00 00 00 00 00  00 00 00 00 00 00 00 00  |................|
I (7742) MODBUS: 0x3ffb72ac   00 00 00 00 00 00 00 00  00 00 00 00 00 00 00 00  |................|
I (7752) MODBUS: 0x3ffb72bc   00 00 00 00 00 00 00 00  00 00 00 00 00 00 00 00  |................|
I (7762) MODBUS: 0x3ffb72cc   00 00 00 00 00 00 00 00  00 00 00 00 00 00 00 00  |................|
I (7772) MODBUS: 0x3ffb72dc   00 00 00 00 00 00 00 00  00 b8 01                 |...........|
I (7782) MODBUS: CRC valid.
I (8342) MODBUS: Sent Request:
I (8342) MODBUS: 0x3ffb8910   01 03 01 ec 00 7b c5 e0                           |.....{..|
I (9642) MODBUS: Received 251 bytes
I (9642) MODBUS: 0x3ffb71ec   01 03 f6 00 00 00 00 00  00 00 00 00 00 00 00 00  |................|
I (9642) MODBUS: 0x3ffb71fc   00 00 00 00 02 00 00 00  00 00 00 00 00 00 00 00  |................|
I (9652) MODBUS: 0x3ffb720c   00 00 00 00 03 00 00 00  00 00 00 00 03 00 00 00  |................|
I (9662) MODBUS: 0x3ffb721c   04 00 0a 00 c3 00 00 01  25 00 00 00 8e 00 00 3d  |........%......=|
I (9672) MODBUS: 0x3ffb722c   0c 00 00 00 00 00 00 00  db 3d 4d 00 00 00 50 00  |.........=M...P.|
I (9682) MODBUS: 0x3ffb723c   00 00 00 00 00 00 00 03  69 00 00 00 00 00 00 00  |........i.......|
I (9692) MODBUS: 0x3ffb724c   00 00 00 04 e2 05 d6 00  00 00 00 00 00 00 00 00  |................|
I (9702) MODBUS: 0x3ffb725c   00 00 00 00 00 00 00 08  00 00 01 00 05 00 00 00  |................|
I (9712) MODBUS: 0x3ffb726c   00 00 00 00 00 00 00 00  00 00 05 00 00 00 68 07  |..............h.|
I (9712) MODBUS: 0x3ffb727c   d0 07 d0 00 01 00 01 00  01 00 fa 00 05 00 02 00  |................|
I (9722) MODBUS: 0x3ffb728c   00 00 00 31 e6 00 2c 08  00 15 fe 00 00 00 00 00  |...1..,.........|
I (9732) MODBUS: 0x3ffb729c   00 01 5c 02 f8 01 7c 02  8a 00 02 00 00 00 00 04  |..\...|.........|
I (9742) MODBUS: 0x3ffb72ac   e2 14 b0 00 05 00 00 fc  0e f8 8c 00 d0 00 00 00  |................|
I (9752) MODBUS: 0x3ffb72bc   00 00 00 00 00 00 00 09  1b 09 23 09 25 00 00 00  |..........#.%...|
I (9762) MODBUS: 0x3ffb72cc   00 00 00 00 0b 00 0a ff  ff 00 14 00 00 13 7a 01  |..............z.|
I (9772) MODBUS: 0x3ffb72dc   07 00 f4 02 37 00 08 00  08 68 04                 |....7....h.|
I (9782) MODBUS: CRC valid.
I (10342) MODBUS: Sent Request:
I (10342) MODBUS: 0x3ffb8910   01 03 02 67 00 7b b5 8e                           |...g.{..|
I (11642) MODBUS: Received 251 bytes
I (11642) MODBUS: 0x3ffb71ec   01 03 f6 00 06 00 03 00  04 00 01 00 08 00 00 00  |................|
I (11642) MODBUS: 0x3ffb71fc   00 00 03 00 01 00 01 00  05 00 00 09 15 09 31 09  |..............1.|
I (11652) MODBUS: 0x3ffb720c   21 00 8c 00 8c 02 26 01  3d 01 55 05 3c 07 ce 00  |!.....&.=.U.<...|
I (11662) MODBUS: 0x3ffb721c   00 13 7a 00 00 01 45 01  5b 05 3d 07 dd 08 ff 09  |..z...E.[.=.....|
I (11672) MODBUS: 0x3ffb722c   25 09 1a 00 00 00 00 00  00 01 45 01 5b 05 3d 07  |%.........E.[.=.|
I (11682) MODBUS: 0x3ffb723c   dd 07 dd 13 7a 00 00 00  00 00 00 00 00 00 00 00  |....z...........|
I (11692) MODBUS: 0x3ffb724c   04 00 08 00 06 00 00 00  00 00 00 00 00 00 07 00  |................|
I (11702) MODBUS: 0x3ffb725c   1b 00 16 00 00 06 4a 05  bd 00 00 00 00 10 f3 00  |......J.........|
I (11712) MODBUS: 0x3ffb726c   25 0e df 00 27 00 00 00  00 00 00 00 00 00 00 00  |%...'...........|
I (11722) MODBUS: 0x3ffb727c   00 00 00 00 00 00 00 00  00 00 00 00 00 00 00 00  |................|
I (11732) MODBUS: 0x3ffb728c   00 00 00 00 00 00 00 00  00 00 00 00 00 00 ff ff  |................|
I (11742) MODBUS: 0x3ffb729c   ff 19 08 12 0f 06 23 ff  ff ff ff ff ff ff ff ff  |......#.........|
I (11752) MODBUS: 0x3ffb72ac   ff ff ff ff ff ff ff ff  ff 00 01 ff ff 00 01 ff  |................|
I (11752) MODBUS: 0x3ffb72bc   ff ff ff ff ff 00 01 00  00 ff ff ff ff ff ff ff  |................|
I (11762) MODBUS: 0x3ffb72cc   ff ff ff ff ff ff ff ff  ff ff ff ff ff ff ff ff  |................|
I (11772) MODBUS: 0x3ffb72dc   ff ff ff ff ff ff ff 00  00 68 07                 |.........h.|
I (11782) MODBUS: CRC valid.
I (12342) MODBUS: Sent Request:
I (12342) MODBUS: 0x3ffb8910   01 03 02 e2 00 7b a4 67                           |.....{.g|
I (13642) MODBUS: Received 251 bytes
I (13642) MODBUS: 0x3ffb71ec   01 03 f6 00 00 15 e0 15  e0 00 00 00 00 00 00 00  |................|
I (13642) MODBUS: 0x3ffb71fc   00 00 00 00 00 00 00 00  00 00 00 00 00 00 00 00  |................|
I (13652) MODBUS: 0x3ffb720c   00 00 00 00 00 00 00 00  00 00 00 00 00 00 00 00  |................|
I (13662) MODBUS: 0x3ffb721c   00 00 00 00 00 00 00 00  00 00 00 00 00 00 00 00  |................|
I (13672) MODBUS: 0x3ffb722c   00 00 00 00 00 00 00 00  00 00 00 00 00 00 00 00  |................|
I (13682) MODBUS: 0x3ffb723c   00 00 00 00 00 00 00 00  00 00 00 00 00 00 00 00  |................|
I (13692) MODBUS: 0x3ffb724c   00 00 00 00 00 00 00 00  00 00 00 00 00 00 00 00  |................|
I (13702) MODBUS: 0x3ffb725c   00 00 00 00 00 00 00 00  00 00 00 00 00 00 00 00  |................|
I (13712) MODBUS: 0x3ffb726c   00 00 00 00 00 00 00 00  00 00 00 00 00 00 00 00  |................|
I (13722) MODBUS: 0x3ffb727c   00 00 00 00 00 00 00 00  00 00 00 00 00 00 00 00  |................|
I (13732) MODBUS: 0x3ffb728c   00 00 00 00 00 00 00 00  00 00 00 00 00 00 00 00  |................|
I (13742) MODBUS: 0x3ffb729c   00 00 00 00 00 00 00 00  00 00 00 00 00 00 00 00  |................|
I (13752) MODBUS: 0x3ffb72ac   00 00 00 00 00 00 00 00  00 00 00 00 00 00 00 00  |................|
I (13752) MODBUS: 0x3ffb72bc   00 00 00 00 00 00 00 00  00 00 00 00 00 00 00 00  |................|
I (13762) MODBUS: 0x3ffb72cc   00 00 00 00 00 00 00 00  00 00 00 00 00 00 00 00  |................|
I (13772) MODBUS: 0x3ffb72dc   00 00 00 00 00 00 00 00  00 58 99                 |.........X.|
I (13782) MODBUS: CRC valid.